! Touchstone Ver. 1.0 
! Number of ports is 2
# Hz	S	RI	R	50.000000
! SCATTERING PARAMETERS  :
1.00000000e+08     0.04279110075445992   0.02345864383115917     0.9571775349771395  -0.02591092747673628     0.9571775349771399  -0.02591092747673626    0.04280010720997418   0.02344308684128258  
2.00000000e+08     0.04465216399854777   0.04682493790876208     0.9552225210057387  -0.05172594412128038     0.9552225210057382  -0.05172594412128085    0.04468812221912843   0.04679253186410461  
3.00000000e+08     0.04773892686293645   0.07000762727526424      0.951979645252913  -0.07735026345554999      0.951979645252913  -0.07735026345554999    0.04781958097136862   0.06995580693481188  
4.00000000e+08     0.05202915082240845   0.09291762007111652     0.9474718470105091   -0.1026913206068032     0.9474718470105085   -0.1026913206068033    0.05217191495287699   0.09284258416501637  
5.00000000e+08     0.05749224350020078    0.1154690039268964     0.9417306864921455   -0.1276598164552077     0.9417306864921463   -0.1276598164552066    0.05771408074163364    0.1153657693347325  
6.00000000e+08     0.06408977964596696    0.1375799871199906     0.9347958110786776   -0.1521706848137087     0.9347958110786777   -0.1521706848137095    0.06440709136626999     0.137442458319271  
7.00000000e+08     0.07177614271812317     0.159173744146306     0.9267142979399204   -0.1761439618180606     0.9267142979399203     -0.17614396181806     0.0722046704773225    0.1589947957269441  
8.00000000e+08     0.08049926781565241    0.1801791490429349     0.9175398927178559   -0.1995055404720115     0.9175398927178564   -0.1995055404720111     0.0810540095720611    0.1799507187496383  
9.00000000e+08     0.09020146439864839    0.2005313839815521     0.9073321663139069   -0.2221877975687846     0.9073321663139077   -0.2221877975687845    0.09089660616146157     0.200244573533773  
1.00000000e+09       0.100820295894855    0.2201724151045137     0.8961556131953787   -0.2441300847602578     0.8961556131953774   -0.2441300847602579     0.1016691594095052     0.219817595957083  
1.10000000e+09      0.1122894929151814    0.2390513320654571     0.8840787150196303   -0.2652790801336081     0.8840787150196302   -0.2652790801336096     0.1133044994138366    0.2386182533083445  
1.20000000e+09      0.1245398773423727    0.2571245520473546     0.8711729928226123     -0.28558900106076     0.8711729928226127   -0.2855890010607594     0.1257325268777938    0.2566024477896297  
1.30000000e+09      0.1375002759136381    0.2743558929758967     0.8575120696334608   -0.3050216831170541     0.8575120696334608   -0.3050216831170547      0.138881141342244    0.2737335868003414  
1.40000000e+09      0.1510984039533996    0.2907165240753592     0.8431707632988281   -0.3235465333694916      0.843170763298827   -0.3235465333694912     0.1526771382592282    0.2899825284661156  
1.50000000e+09      0.1652617024661718    0.3061848047222559     0.8282242266931397   -0.3411403692043717     0.8282242266931406    -0.341140369204372     0.1670470578317067    0.3053274137356358  
1.60000000e+09      0.1799181147014864    0.3207460246799163     0.8127471495285329   -0.3577871560384879     0.8127471495285324   -0.3577871560384899     0.1819179715382655    0.3197533985251408  
1.70000000e+09      0.1949967913840163    0.3343920602287627     0.7968130328326665   -0.3734776587216014     0.7968130328326648   -0.3734776587216011     0.1972181954339476    0.3332523008289278  
1.80000000e+09      0.2104287169068033    0.3471209614660951     0.7804935439938073    -0.388209022214612     0.7804935439938068   -0.3882090222146122     0.2128779225078328    0.3458221784604871  
1.90000000e+09      0.2261472517775811    0.3589364861904841     0.7638579572187277   -0.4019842972742435     0.7638579572187275   -0.4019842972742451     0.2288297694447292    0.3574668532012923  
2.00000000e+09      0.2420885893774543     0.369847595388222     0.7469726814227814   -0.4148119264715339     0.7469726814227806   -0.4148119264715329     0.2450092359695557    0.3681953966951807  
2.10000000e+09      0.2581921275555872    0.3798679244964535     0.7299008750570048   -0.4267052050138054     0.7299008750570023   -0.4267052050138069      0.261355077465151    0.3780215925335753  
2.20000000e+09      0.2744007576883352    0.3890152434301903     0.7127021452288009   -0.4376817296309974     0.7127021452287999   -0.4376817296309982     0.2778095936925842    0.3869633877350692  
2.30000000e+09      0.2906610755494694    0.3973109169292055      0.695432326719621   -0.4477628473298572     0.6954323267196219   -0.4477628473298563     0.2943188381807142    0.3950423453360696  
2.40000000e+09      0.3069235196642313    0.4047793752005518     0.6781433351488937   -0.4569731142105733     0.6781433351488921   -0.4569731142105757     0.3108327541850566    0.4022831081755538  
2.50000000e+09      0.3231424437690436    0.4114476031883283     0.6608830875642241   -0.4653397728662889     0.6608830875642235   -0.4653397728662903     0.3273052440613224    0.4087128822634618  
2.60000000e+09      0.3392761305990513    0.4173446551665158     0.6436954831234607   -0.4728922552205432     0.6436954831234614   -0.4728922552205408     0.3436941794870034    0.4143609464429681  
2.70000000e+09      0.3552867545166216    0.4225011997816169     0.6266204362351583   -0.4796617160603872     0.6266204362351541   -0.4796617160603922     0.3599613602365261    0.4192581934513445  
2.80000000e+09      0.3711403005202758    0.4269490992138805     0.6096939544941586   -0.4856806010386122      0.609693954494161    -0.485680601038609     0.3760724292183992    0.4234367059970087  
2.90000000e+09      0.3868064469827843    0.4307210248098081      0.592948253940292    -0.490982251578682     0.5929482539402949   -0.4909822515786789     0.3919967512662437    0.4269293701321018  
3.00000000e+09      0.4022584191061456    0.4338501103829051     0.5764119045324341   -0.4956005479395924     0.5764119045324354   -0.4956005479395927     0.4077072627879403    0.4297695270297859  
3.10000000e+09      0.4174728195944795    0.4363696433932966     0.5601099992226126   -0.4995695906930769     0.5601099992226153   -0.4995695906930732     0.4231802988641045    0.4319906632797215  
3.20000000e+09      0.4324294424734227    0.4383127933988571     0.5440643405942917   -0.5029234200326169     0.5440643405942914   -0.5029234200326165      0.438395403790024     0.433626138994254  
3.30000000e+09      0.4471110753615426    0.4397123765149793     0.5282936396598428   -0.5056957716654675     0.5282936396598419   -0.5056957716654693     0.4533351304098912    0.4347089523632238  
3.40000000e+09      0.4615032948553464    0.4406006541152183     0.5128137220647906    -0.507919867523565     0.5128137220647877   -0.5079198675235675     0.4679848329283787    0.4352715387948041  
3.50000000e+09      0.4755942590481252    0.4410091636361596     0.4976377375958931   -0.5096282391523504     0.4976377375958936   -0.5096282391523483     0.4823324572269929    0.4353456024181989  
3.60000000e+09      0.4893745005834335    0.4409685791009175     0.4827763695181513   -0.5108525813809243     0.4827763695181512   -0.5108525813809235     0.4963683320794032    0.4349619774836305  
3.70000000e+09      0.5028367230594264    0.4405085988291471     0.4682380408579175   -0.5116236337258363     0.4682380408579171    -0.511623633725837       0.51008496406508    0.4341505170586444  
3.80000000e+09      0.5159756030609236    0.4396578577410186     0.4540291152963121   -0.5119710869165834     0.4540291152963121   -0.5119710869165833     0.5234768384331774     0.432940006369297  
3.90000000e+09      0.5287875996070563    0.4384438616718243     0.4401540908328109   -0.5119235119376958      0.440154090832813   -0.5119235119376951     0.5365402276743689    0.4313580981543784  
4.00000000e+09      0.5412707723669758    0.4368929411782814     0.4266157848204951   -0.5115083090449573     0.4266157848204972   -0.5115083090449558      0.549273009119734    0.4294312674748759  
4.10000000e+09      0.5534246096146952    0.4350302224238603     0.4134155093615015   -0.5107516743185212     0.4134155093615026   -0.5107516743185198     0.5616744925028598    0.4271847835361478  
4.20000000e+09      0.5652498665654064      0.43287961286711     0.4005532363851222   -0.5096785814518082     0.4005532363851201   -0.5096785814518077     0.5737452580926672    0.4246426962250773  
4.30000000e+09      0.5767484144566645    0.4304637996340504     0.3880277520142451   -0.5083127766320683     0.3880277520142469   -0.5083127766320684     0.5854870057267014    0.4218278352287304  
4.40000000e+09       0.587923100505684    0.4278042586251168     0.3758368000625101   -0.5066767845380487      0.375836800062511   -0.5066767845380467     0.5969024148443038    0.4187618197764998  
4.50000000e+09       0.598777618683499    0.4249212725820395     0.3639772146980721   -0.5047919236555715     0.3639772146980729   -0.5047919236555696     0.6079950154313696     0.415465077227856  
4.60000000e+09      0.6093163910948394    0.4218339565152683     0.3524450424656976   -0.5026783292875749     0.3524450424656952   -0.5026783292875768     0.6187690696392603    0.4119568689070688  
4.70000000e+09      0.6195444596333552    0.4185602890637468     0.3412356539804391   -0.5003549828070945     0.3412356539804363   -0.5003549828070974       0.62922946372442    0.4082553217608068  
4.80000000e+09      0.6294673874922234    0.4151171485231941      0.330343845698798   -0.4978397458667815     0.3303438456987967    -0.497839745866782     0.6393816098688099    0.4043774645812663  
4.90000000e+09       0.639091170045025     0.411520352434157      0.319763932240425   -0.4951493984345552     0.3197639322404255    -0.495149398434554      0.649231357379253    0.4003392676944422  
5.00000000e+09       0.648422154567927    0.4077846997657102     0.3094898297794755    -0.492299679670445     0.3094898297794749   -0.4922996796704465       0.65878491272285    0.3961556851588079  
5.10000000e+09      0.6574669682477958    0.4039240148638164     0.2995151310530152   -0.4893053307937743     0.2995151310530145   -0.4893053307937754      0.668048767831964    0.3918406986535517  
5.20000000e+09      0.6662324539087922    0.3999511924547978     0.2898331725475504   -0.4861801392121749      0.289833172547555   -0.4861801392121721     0.6770296361026993    0.3874073623571039  
5.30000000e+09      0.6747256128895829    0.3958782431039814     0.2804370944266762   -0.4829369832945244     0.2804370944266764    -0.482936983294526     0.6857343955125987    0.3828678482262783  
5.40000000e+09      0.6829535545119351    0.3917163386277841     0.2713198937553967   -0.4795878772690703     0.2713198937553947   -0.4795878772690713     0.6941700382939713    0.3782334911841974  
5.50000000e+09      0.6909234515974112    0.3874758570447812     0.2624744715622001   -0.4761440158161075     0.2624744715621981   -0.4761440158161076     0.7023436266166199    0.3735148338117887  
5.60000000e+09      0.6986425015097677    0.3831664267281715     0.2538936742597396   -0.4726158180025429     0.2538936742597428   -0.4726158180025412     0.7102622537564094    0.3687216702140059  
5.70000000e+09      0.7061178922256651    0.3787969694893979     0.2455703299211468   -0.4690129702738365     0.2455703299211449   -0.4690129702738373     0.7179330102519896    0.3638630887983976  
5.80000000e+09      0.7133567729636519    0.3743757423811925     0.2374972798822705   -0.4653444682782776     0.2374972798822697   -0.4653444682782781     0.7253629545805154    0.3589475137613783  
5.90000000e+09      0.7203662289304478    0.3699103780588011     0.2296674061119862   -0.4616186573498539      0.229667406111987   -0.4616186573498541     0.7325590879128114    0.3539827451271805  
6.00000000e+09      0.7271532597731241    0.3654079235813212     0.2220736547634697   -0.4578432715201167     0.2220736547634763   -0.4578432715201134     0.7395283325387971    0.3489759972269159  
6.10000000e+09      0.7337247613556386     0.360874877571876     0.2147090562902315   -0.4540254709669546     0.2147090562902313   -0.4540254709669539     0.7462775135840735    0.3439339355410759  
6.20000000e+09      0.7400875105073854    0.3563172256862391     0.2075667424816976   -0.4501718778399919     0.2075667424817008   -0.4501718778399908      0.752813343668267    0.3388627118590425  
6.30000000e+09      0.7462481524200765    0.3517404743654743     0.2006399607451765   -0.4462886104288925     0.2006399607451817   -0.4462886104288905     0.7591424101842461    0.3337679977342958  
6.40000000e+09      0.7522131903964033    0.3471496828694255     0.1939220859337455   -0.4423813156630542     0.1939220859337467   -0.4423813156630528     0.7652711649049084    0.3286550162348162  
6.50000000e+09      0.7579889776801682    0.3425494936054556      0.187406629993984   -0.4384551999492947      0.187406629993979   -0.4384551999492967      0.771205915650234    0.3235285720050275  
6.60000000e+09      0.7635817111221047    0.3379441607808908     0.1810872496829516   -0.4345150583689187     0.1810872496829526   -0.4345150583689173     0.7769528197718086     0.318393079669227  
6.70000000e+09      0.7689974264586787    0.3333375774188266     0.1749577525809107   -0.4305653022673438       0.17495775258091   -0.4305653022673439     0.7825178792349963    0.3132525906171313  
6.80000000e+09      0.7742419950026191    0.3287333007855607      0.169012101604798   -0.4266099852788022     0.1690121016047941   -0.4266099852788039     0.7879069371004379    0.3081108182205425  
6.90000000e+09      0.7793211215640028    0.3241345762845765     0.1632444182076725   -0.4226528278356367      0.163244418207672   -0.4226528278356373      0.793125675226082    0.3029711615362004  
7.00000000e+09      0.7842403434390359    0.3195443598766508     0.1576489844308783   -0.4186972402170846     0.1576489844308791   -0.4186972402170859     0.7981796130294333    0.2978367275544725  
7.10000000e+09      0.7890050303206054    0.3149653390889356     0.1522202439587108    -0.414746344196117     0.1522202439587084   -0.4147463441961172     0.8030741071663061    0.2927103520564502  
7.20000000e+09      0.7936203850002275    0.3103999526778493     0.1469528023098901   -0.4108029933453572     0.1469528023098889   -0.4108029933453577     0.8078143519977121    0.2875946191438365  
7.30000000e+09       0.798091444745155     0.305850409011529     0.1418414262858835   -0.4068697920644362     0.1418414262858855   -0.4068697920644363     0.8124053807304321    0.2824918795067454  
7.40000000e+09      0.8024230832472866    0.3013187032376811     0.1368810427832069    -0.402949113391654     0.1368810427832031   -0.4029491133916553     0.8168520671295887    0.2774042674945181  
7.50000000e+09      0.8066200130521344     0.296806633302054     0.1320667370649621   -0.3990431156625446     0.1320667370649675   -0.3990431156625427     0.8211591277129435    0.2723337170539524  
7.60000000e+09      0.8106867883868666    0.2923158148816419     0.1273937505763671   -0.3951537580771107     0.1273937505763658   -0.3951537580771114     0.8253311243470193    0.2672819765980908  
7.70000000e+09      0.8146278083157088    0.2878476952950427     0.1228574783791429   -0.3912828152362621     0.1228574783791447   -0.3912828152362627     0.8293724671747106     0.262250622867118  
7.80000000e+09      0.8184473201598694    0.2834035664506114     0.1184534662711414    -0.387431890706264     0.1184534662711449   -0.3874318907062642     0.8332874178121461    0.2572410738409168  
7.90000000e+09      0.8221494231266515    0.2789845768907406     0.1141774076495751   -0.3836024296681784     0.1141774076495759   -0.3836024296681799      0.837080092760483    0.2522546007607093  
8.00000000e+09      0.8257380720994397    0.2745917429883701      0.110025140169217   -0.3797957307071165     0.1100251401692227   -0.3797957307071136     0.8407544669848934    0.2472923393148359  
8.10000000e+09      0.8292170815464746    0.2702259593493153     0.1059926422406798   -0.3760129567938754     0.1059926422406786   -0.3760129567938765      0.844314377619074    0.2423553000412825  
8.20000000e+09      0.8325901295117212     0.265888008471474     0.1020760294080358   -0.3722551455092388     0.1020760294080345   -0.3722551455092382     0.8477635277592099    0.2374443779971071  
8.30000000e+09      0.8358607616562603    0.2615785697094766    0.09827155064023135   -0.3685232185587609    0.09827155064023826   -0.3685232185587604     0.8511054903158606    0.2325603617423158  
8.40000000e+09      0.8390323953228285    0.2572982275907211    0.09457558456596941   -0.3648179906235474    0.09457558456597459   -0.3648179906235467     0.8543437118968364    0.2277039416833236  
8.50000000e+09      0.8421083236001305    0.2530474795262723    0.09098463567788571   -0.3611401775900961    0.09098463567788519   -0.3611401775900954     0.8574815166977319    0.2228757178185765  
8.60000000e+09      0.8450917193670018    0.2488267429576248    0.08749533052822085   -0.3574904041999463    0.08749533052822146   -0.3574904041999474     0.8605221103802256    0.2180762069265548  
8.70000000e+09      0.8479856392994913    0.2446363619779326    0.08410441393498823   -0.3538692111575845    0.08410441393498845   -0.3538692111575847       0.86346858392128    0.2133058492339602  
8.80000000e+09      0.8507930278266558    0.2404766134639784    0.08080874521484217   -0.3502770617328437     0.0808087452148417   -0.3502770617328424     0.8663239174189817    0.2085650145996959  
8.90000000e+09        0.85351672102323    0.2363477127529405    0.07760529445636347   -0.3467143478918591    0.07760529445635797   -0.3467143478918612     0.8690909838430665    0.2038540082479818  
9.00000000e+09       0.856159450429409    0.2322498188958657     0.0744911388452779   -0.3431813959885994    0.07449113884528248   -0.3431813959886003     0.8717725527202687    0.1991730760819295  
9.10000000e+09      0.8587238467898601    0.2281830395177416    0.07146345905124936   -0.3396784720469915    0.07146345905124674   -0.3396784720469921     0.8743712937463641    0.1945224096068316  
9.20000000e+09      0.8612124437055022    0.2241474353120594    0.06851953568399505   -0.3362057866618077    0.06851953568399016   -0.3362057866618101     0.8768897803184531     0.189902150490626  
9.30000000e+09      0.8636276811932788    0.2201430241960075    0.06565674582529001     -0.33276349954463    0.06565674582528896   -0.3327634995446314     0.8793304929822272     0.185312394787066  
9.40000000e+09      0.8659719091500546    0.2161697851506209    0.06287255964180408   -0.3293517237395551    0.06287255964179961   -0.3293517237395559     0.8816958227903332    0.1807531968455607  
9.50000000e+09      0.8682473907180116    0.2122276617685842    0.06016453708278457   -0.3259705295316761    0.06016453708278947   -0.3259705295316755     0.8839880745689226    0.1762245729299448  
9.60000000e+09      0.8704563055497909     0.208316565530881    0.05753032466554481   -0.3226199480698243    0.05753032466554978   -0.3226199480698244     0.8862094700902718    0.1717265045669759  
9.70000000e+09      0.8726007529723034    0.2044363788319498    0.05496765235078225   -0.3192999747236765    0.05496765235078334   -0.3192999747236773     0.8883621511503373    0.1672589416439368  
9.80000000e+09      0.8746827550489742    0.2005869577717154    0.05247433050916227    -0.316010572193921    0.05247433050915875    -0.316010572193922     0.8904481825505621    0.1628218052733494  
9.90000000e+09      0.8767042595406036    0.1967681347315308    0.05004824697980719   -0.3127516733929537    0.05004824697980467   -0.3127516733929541      0.892469554983972    0.1584149904416047  
1.00000000e+10      0.8786671427655973    0.1929797207498908    0.04768736422087787   -0.3095231841123501    0.04768736422087719   -0.3095231841123489     0.8944281878259637    0.1540383684571064  
